
**** 01/04/25 08:11:53 ********* PSpice 9.2 (Mar 2000) ******** ID# 0 ********

 ** Profile: "SCHEMATIC1-CA1-Q3-D-Simulate"  [ E:\UT Programming\Electrical-Circuits-Fall-2024\CA1\Q3\D\ca1-q3-d-SCHEMATIC1-CA1-Q3-D-


 ****     CIRCUIT DESCRIPTION


******************************************************************************




** Creating circuit file "ca1-q3-d-SCHEMATIC1-CA1-Q3-D-Simulate.sim.cir" 
** WARNING: THIS AUTOMATICALLY GENERATED FILE MAY BE OVERWRITTEN BY SUBSEQUENT SIMULATIONS

*Libraries: 
* Local Libraries :
* From [PSPICE NETLIST] section of C:\Program Files\Orcad\PSpice\PSpice.ini file:
.lib "nom.lib" 

*Analysis directives: 
.TRAN  0 10ms 0 
.PROBE V(*) I(*) W(*) D(*) NOISE(*) 
.INC ".\ca1-q3-d-SCHEMATIC1.net" 



**** INCLUDING ca1-q3-d-SCHEMATIC1.net ****
* source CA1-Q3-D
R_R1         N00069 N00099  6  
V_V1         N00069 0 20Vdc
C_C         0 N00099  100u IC=0 

**** RESUMING ca1-q3-d-SCHEMATIC1-CA1-Q3-D-Simulate.sim.cir ****
.END

**** 01/04/25 08:11:53 ********* PSpice 9.2 (Mar 2000) ******** ID# 0 ********

 ** Profile: "SCHEMATIC1-CA1-Q3-D-Simulate"  [ E:\UT Programming\Electrical-Circuits-Fall-2024\CA1\Q3\D\ca1-q3-d-SCHEMATIC1-CA1-Q3-D-


 ****     INITIAL TRANSIENT SOLUTION       TEMPERATURE =   27.000 DEG C


******************************************************************************



 NODE   VOLTAGE     NODE   VOLTAGE     NODE   VOLTAGE     NODE   VOLTAGE


(N00069)   20.0000 (N00099)     .0067 




    VOLTAGE SOURCE CURRENTS
    NAME         CURRENT

    V_V1        -3.332E+00

    TOTAL POWER DISSIPATION   6.66E+01  WATTS



          JOB CONCLUDED

          TOTAL JOB TIME            0.00
