
**** 01/03/25 23:51:53 ********* PSpice 9.2 (Mar 2000) ******** ID# 0 ********

 ** Profile: "SCHEMATIC1-CA1-Q3-B-Simulate"  [ E:\UT Programming\Electrical-Circuits-Fall-2024\CA1\Q3\B\ca1-q3-b-schematic1-ca1-q3-b-


 ****     CIRCUIT DESCRIPTION


******************************************************************************




** Creating circuit file "ca1-q3-b-schematic1-ca1-q3-b-simulate.sim.cir" 
** WARNING: THIS AUTOMATICALLY GENERATED FILE MAY BE OVERWRITTEN BY SUBSEQUENT SIMULATIONS

*Libraries: 
* Local Libraries :
* From [PSPICE NETLIST] section of C:\Program Files\Orcad\PSpice\PSpice.ini file:
.lib "nom.lib" 

*Analysis directives: 
.PROBE V(*) I(*) W(*) D(*) NOISE(*) 
.INC ".\ca1-q3-b-SCHEMATIC1.net" 



**** INCLUDING ca1-q3-b-SCHEMATIC1.net ****
* source CA1-Q3-B
R_R1         N00113 N00143  2  
R_R5         N01285 A  6  
V_V1         N01285 0 20Vdc
R_R3         0 N00143  6  
E_E1         N00143 N00113 N00113 0 2
R_R4         N00113 0  4  
I_I1         0 N00113 DC 5Adc  
R_R2         N00143 A  2  
R_R6         0 A  10  
R_R7         0 A  10  

**** RESUMING ca1-q3-b-schematic1-ca1-q3-b-simulate.sim.cir ****
.END

**** 01/03/25 23:51:53 ********* PSpice 9.2 (Mar 2000) ******** ID# 0 ********

 ** Profile: "SCHEMATIC1-CA1-Q3-B-Simulate"  [ E:\UT Programming\Electrical-Circuits-Fall-2024\CA1\Q3\B\ca1-q3-b-schematic1-ca1-q3-b-


 ****     SMALL SIGNAL BIAS SOLUTION       TEMPERATURE =   27.000 DEG C


******************************************************************************



 NODE   VOLTAGE     NODE   VOLTAGE     NODE   VOLTAGE     NODE   VOLTAGE


(    A)   12.5000  (N00113)    5.0000 (N00143)   15.0000 (N01285)   20.0000 




    VOLTAGE SOURCE CURRENTS
    NAME         CURRENT

    V_V1        -1.250E+00

    TOTAL POWER DISSIPATION   2.50E+01  WATTS



          JOB CONCLUDED

          TOTAL JOB TIME             .02
