
**** 01/03/25 18:57:10 ********* PSpice 9.2 (Mar 2000) ******** ID# 0 ********

 ** Profile: "SCHEMATIC1-CA1-Q2-B-Simulate"  [ E:\UT Programming\Electrical-Circuits-Fall-2024\CA1\Q2\B\ca1-q2-b-SCHEMATIC1-CA1-Q2-B-


 ****     CIRCUIT DESCRIPTION


******************************************************************************




** Creating circuit file "ca1-q2-b-SCHEMATIC1-CA1-Q2-B-Simulate.sim.cir" 
** WARNING: THIS AUTOMATICALLY GENERATED FILE MAY BE OVERWRITTEN BY SUBSEQUENT SIMULATIONS

*Libraries: 
* Local Libraries :
* From [PSPICE NETLIST] section of C:\Program Files\Orcad\PSpice\PSpice.ini file:
.lib "nom.lib" 

*Analysis directives: 
.PROBE V(*) I(*) W(*) D(*) NOISE(*) 
.INC ".\ca1-q2-b-SCHEMATIC1.net" 



**** INCLUDING ca1-q2-b-SCHEMATIC1.net ****
* source CA1-Q2-B
R_R1         N00479 N00597  4  
R_R2         N00421 N00597  1  
R_R3         0 N00421  2  
I_I1         N00421 N00479 DC 3Adc  
X_H1    0 N00597 N00479 0 SCHEMATIC1_H1 

.subckt SCHEMATIC1_H1 1 2 3 4  
H_H1         3 4 VH_H1 3
VH_H1         1 2 0V
.ends SCHEMATIC1_H1

**** RESUMING ca1-q2-b-SCHEMATIC1-CA1-Q2-B-Simulate.sim.cir ****
.END

**** 01/03/25 18:57:10 ********* PSpice 9.2 (Mar 2000) ******** ID# 0 ********

 ** Profile: "SCHEMATIC1-CA1-Q2-B-Simulate"  [ E:\UT Programming\Electrical-Circuits-Fall-2024\CA1\Q2\B\ca1-q2-b-SCHEMATIC1-CA1-Q2-B-


 ****     SMALL SIGNAL BIAS SOLUTION       TEMPERATURE =   27.000 DEG C


******************************************************************************



 NODE   VOLTAGE     NODE   VOLTAGE     NODE   VOLTAGE     NODE   VOLTAGE


(N00421)   -2.0000 (N00479)    3.4286 (N00597)    0.0000 




    VOLTAGE SOURCE CURRENTS
    NAME         CURRENT

    X_H1.VH_H1   1.143E+00

    TOTAL POWER DISSIPATION   0.00E+00  WATTS



          JOB CONCLUDED

          TOTAL JOB TIME             .02
