
**** 01/03/25 11:40:39 ********* PSpice 9.2 (Mar 2000) ******** ID# 0 ********

 ** Profile: "SCHEMATIC1-Q1-Simulate"  [ E:\UT Programming\Electrical-Circuits-Fall-2024\CA1\ca1-q1-schematic1-q1-simulate.sim ] 


 ****     CIRCUIT DESCRIPTION


******************************************************************************




** Creating circuit file "ca1-q1-schematic1-q1-simulate.sim.cir" 
** WARNING: THIS AUTOMATICALLY GENERATED FILE MAY BE OVERWRITTEN BY SUBSEQUENT SIMULATIONS

*Libraries: 
* Local Libraries :
* From [PSPICE NETLIST] section of C:\Program Files\Orcad\PSpice\PSpice.ini file:
.lib "nom.lib" 

*Analysis directives: 
.PROBE V(*) I(*) W(*) D(*) NOISE(*) 
.INC ".\ca1-q1-SCHEMATIC1.net" 



**** INCLUDING ca1-q1-SCHEMATIC1.net ****
* source CA1-Q1
X_H2    I N03223 N03200 0 SCHEMATIC1_H2 
R_R8         I N03306  1  
R_R9         N03249 0  1  
R_R10         N03306 N03249  1  
E_E2         N03306 0 N03200 N03223 2
R_R11         N03249 N03200  1  
R_R12         N03223 N03200  1  
V_V2         N03249 N03223 9Vdc

.subckt SCHEMATIC1_H2 1 2 3 4  
H_H2         3 4 VH_H2 2
VH_H2         1 2 0V
.ends SCHEMATIC1_H2

**** RESUMING ca1-q1-schematic1-q1-simulate.sim.cir ****
.END

**** 01/03/25 11:40:39 ********* PSpice 9.2 (Mar 2000) ******** ID# 0 ********

 ** Profile: "SCHEMATIC1-Q1-Simulate"  [ E:\UT Programming\Electrical-Circuits-Fall-2024\CA1\ca1-q1-schematic1-q1-simulate.sim ] 


 ****     SMALL SIGNAL BIAS SOLUTION       TEMPERATURE =   27.000 DEG C


******************************************************************************



 NODE   VOLTAGE     NODE   VOLTAGE     NODE   VOLTAGE     NODE   VOLTAGE


(    I)    9.0000  (N03200)   18.0000 (N03223)    9.0000 (N03249)   18.0000     

(N03306)   18.0000 




    VOLTAGE SOURCE CURRENTS
    NAME         CURRENT

    V_V2        -1.800E+01
    X_H2.VH_H2   9.000E+00

    TOTAL POWER DISSIPATION   1.62E+02  WATTS



          JOB CONCLUDED

          TOTAL JOB TIME             .02
