
**** 01/03/25 16:33:07 ********* PSpice 9.2 (Mar 2000) ******** ID# 0 ********

 ** Profile: "SCHEMATIC1-CA1-Q2-A-Simulate"  [ E:\UT PROGRAMMING\ELECTRICAL-CIRCUITS-FALL-2024\CA1\Q2\A\ca1-q2-a-SCHEMATIC1-CA1-Q2-A-


 ****     CIRCUIT DESCRIPTION


******************************************************************************




** Creating circuit file "ca1-q2-a-SCHEMATIC1-CA1-Q2-A-Simulate.sim.cir" 
** WARNING: THIS AUTOMATICALLY GENERATED FILE MAY BE OVERWRITTEN BY SUBSEQUENT SIMULATIONS

*Libraries: 
* Local Libraries :
* From [PSPICE NETLIST] section of C:\Program Files\Orcad\PSpice\PSpice.ini file:
.lib "nom.lib" 

*Analysis directives: 
.PROBE V(*) I(*) W(*) D(*) NOISE(*) 
.INC ".\ca1-q2-a-SCHEMATIC1.net" 



**** INCLUDING ca1-q2-a-SCHEMATIC1.net ****
* source CA1-Q2-A
R_R1         N00479 N00597  4  
R_R2         N00421 N00597  1  
R_R3         0 N00421  2  
V_V2         N00361 0 8Vdc
I_I1         N00421 N00479 DC 3Adc  
X_H1    N00361 N00597 N00479 0 SCHEMATIC1_H1 

.subckt SCHEMATIC1_H1 1 2 3 4  
H_H1         3 4 VH_H1 3
VH_H1         1 2 0V
.ends SCHEMATIC1_H1

**** RESUMING ca1-q2-a-SCHEMATIC1-CA1-Q2-A-Simulate.sim.cir ****
.END

**** 01/03/25 16:33:07 ********* PSpice 9.2 (Mar 2000) ******** ID# 0 ********

 ** Profile: "SCHEMATIC1-CA1-Q2-A-Simulate"  [ E:\UT PROGRAMMING\ELECTRICAL-CIRCUITS-FALL-2024\CA1\Q2\A\ca1-q2-a-SCHEMATIC1-CA1-Q2-A-


 ****     SMALL SIGNAL BIAS SOLUTION       TEMPERATURE =   27.000 DEG C


******************************************************************************



 NODE   VOLTAGE     NODE   VOLTAGE     NODE   VOLTAGE     NODE   VOLTAGE


(N00361)    8.0000 (N00421)    3.3333 (N00479)   11.4290 (N00597)    8.0000 




    VOLTAGE SOURCE CURRENTS
    NAME         CURRENT

    V_V2        -3.810E+00
    X_H1.VH_H1   3.810E+00

    TOTAL POWER DISSIPATION   3.05E+01  WATTS



          JOB CONCLUDED

          TOTAL JOB TIME            0.00
